T4124 3870:530 SEGGER J-Link V4.84c Log File (0001ms, 43226ms total)
T4124 3870:530 DLL Compiled: Apr 16 2014 18:53:07 (0001ms, 43226ms total)
T4124 3870:530 Logging started @ 2021-07-22 14:37 (0001ms, 43226ms total)
T4124 3870:531 JLINK_SetWarnOutHandler(...) (0000ms, 43226ms total)
T4124 3870:531 JLINK_OpenEx(...)
Firmware: J-Link ARM-OB STM32 compiled Aug 22 2012 19:52:04
Hardware: V7.00
S/N: 20090928
Feature(s): RDI,FlashDL,FlashBP,JFlash,GDBFullDevice "UNSPECIFIED" selected (0 KB flash, 0 KB RAM).  returns O.K. (0258ms, 43484ms total)
T4124 3870:789 JLINK_GetEmuCaps()  returns 0x88EA5833 (0000ms, 43484ms total)
T4124 3870:790 JLINK_TIF_GetAvailable(...) (0000ms, 43484ms total)
T4124 3870:790 JLINK_SetErrorOutHandler(...) (0000ms, 43484ms total)
T4124 3870:790 JLINK_ExecCommand("ProjectFile = "D:\360MoveData\Users\lcmf\Desktop\µçÈü\ANO_LX_FC_F407\ProjectSTM32F407\JLinkSettings.ini"", ...)Device "UNSPECIFIED" selected (0 KB flash, 0 KB RAM).  returns 0x00 (0000ms, 43484ms total)
T4124 3870:790 JLINK_ExecCommand("Device = STM32F407VGTx", ...)Device "UNSPECIFIED" selected (0 KB flash, 0 KB RAM).  returns 0x00 (0000ms, 43484ms total)
T4124 3870:790 JLINK_ExecCommand("DisableConnectionTimeout", ...)  returns 0x01 (0000ms, 43484ms total)
T4124 3870:790 JLINK_GetHardwareVersion()  returns 0x11170 (0000ms, 43484ms total)
T4124 3870:790 JLINK_GetDLLVersion()  returns 48403 (0000ms, 43484ms total)
T4124 3870:790 JLINK_GetFirmwareString(...) (0000ms, 43484ms total)
T4124 3870:790 JLINK_GetDLLVersion()  returns 48403 (0000ms, 43484ms total)
T4124 3870:790 JLINK_GetCompileDateTime() (0000ms, 43484ms total)
T4124 3870:790 JLINK_GetFirmwareString(...) (0000ms, 43484ms total)
T4124 3870:790 JLINK_GetHardwareVersion()  returns 0x11170 (0000ms, 43484ms total)
T4124 3870:790 JLINK_TIF_Select(JLINKARM_TIF_SWD)  returns 0x00 (0001ms, 43485ms total)
T4124 3870:791 JLINK_SetSpeed(5000) (0000ms, 43485ms total)
T4124 3870:791 JLINK_GetId() >0x108 TIF>Found SWD-DP with ID 0x2BA01477 >0x0D TIF> >0x21 TIF> >0x0D TIF> >0x28 TIF> >0x0D TIF> >0x28 TIF> >0x0D TIF> >0x21 TIF> >0x0D TIF> >0x28 TIF> >0x0D TIF> >0x21 TIF> >0x0D TIF> >0x21 TIF> >0x0D TIF> >0x21 TIF> >0x0D TIF> >0x21 TIF> >0x0D TIF> >0x28 TIF> >0x0D TIF> >0x28 TIF> >0x0D TIF> >0x21 TIF> >0x0D TIF> >0x28 TIF> >0x0D TIF> >0x28 TIF> >0x0D TIF> >0x28 TIF> >0x0D TIF> >0x21 TIF> >0x0D TIF> >0x21 TIF> >0x0D TIF> >0x28 TIF> >0x0D TIF> >0x21 TIF> >0x0D TIF>
 >0x21 TIF>Found Cortex-M4 r0p1, Little endian. -- CPU_WriteMem(4 bytes @ 0xE0002000) -- CPU_ReadMem(4 bytes @ 0xE000EDF0) -- CPU_ReadMem(4 bytes @ 0xE0002000)FPUnit: 6 code (BP) slots and 2 literal slots -- CPU_ReadMem(4 bytes @ 0xE000EDFC) -- CPU_ReadMem(4 bytes @ 0xE0001000) -- CPU_WriteMem(4 bytes @ 0xE0001000) -- CPU_ReadMem(4 bytes @ 0xE00FF010)TPIU fitted. -- CPU_ReadMem(4 bytes @ 0xE00FF014)ETM fitted. -- CPU_ReadMem(4 bytes @ 0xE00FF018) >0x0D TIF> >0x21 TIF>  returns 0x2BA01477
 (0013ms, 43498ms total)
T4124 3870:804 JLINK_GetDLLVersion()  returns 48403 (0000ms, 43498ms total)
T4124 3870:804 JLINK_CORE_GetFound()  returns 0xE0000FF (0000ms, 43498ms total)
T4124 3870:804 JLINK_GetDebugInfo(0x100) -- Value=0xE00FF003  returns 0x00 (0000ms, 43498ms total)
T4124 3870:804 JLINK_GetDebugInfo(0x101)  returns 0xFFFFFFFF (0000ms, 43498ms total)
T4124 3870:804 JLINK_ReadMemEx(0xE0041FF0, 0x0010 Bytes, ..., AccessWidth = 33554436) -- CPU is running -- CPU_ReadMem(16 bytes @ 0xE0041FF0) -- Data:  0D 00 00 00 90 00 00 00 05 00 00 00 B1 00 00 00  returns 0x10 (0001ms, 43499ms total)
T4124 3870:805 JLINK_ReadMemEx(0xE0041FD0, 0x0020 Bytes, ..., AccessWidth = 33554436) -- CPU is running -- CPU_ReadMem(32 bytes @ 0xE0041FD0) -- Data:  04 00 00 00 00 00 00 00 00 00 00 00 00 00 00 00 ...  returns 0x20 (0001ms, 43500ms total)
T4124 3870:806 JLINK_GetDebugInfo(0x102)  returns 0xFFFFFFFF (0000ms, 43500ms total)
T4124 3870:806 JLINK_GetDebugInfo(0x103)  returns 0xFFFFFFFF (0000ms, 43500ms total)
T4124 3870:806 JLINK_ReadMemEx(0xE0040FF0, 0x0010 Bytes, ..., AccessWidth = 33554436) -- CPU is running -- CPU_ReadMem(16 bytes @ 0xE0040FF0) -- Data:  0D 00 00 00 90 00 00 00 05 00 00 00 B1 00 00 00  returns 0x10 (0000ms, 43500ms total)
T4124 3870:806 JLINK_GetDebugInfo(0x104)  returns 0xFFFFFFFF (0000ms, 43500ms total)
T4124 3870:806 JLINK_GetDebugInfo(0x105)  returns 0xFFFFFFFF (0000ms, 43500ms total)
T4124 3870:806 JLINK_GetDebugInfo(0x106)  returns 0xFFFFFFFF (0000ms, 43500ms total)
T4124 3870:806 JLINK_GetDebugInfo(0x107)  returns 0xFFFFFFFF (0000ms, 43500ms total)
T4124 3870:806 JLINK_GetDebugInfo(0x10C)  returns 0xFFFFFFFF (0000ms, 43500ms total)
T4124 3870:806 JLINK_GetDebugInfo(0x01)  returns 0xFFFFFFFF (0000ms, 43500ms total)
T4124 3870:806 JLINK_GetDeviceFamily()  returns 14 (0000ms, 43500ms total)
T4124 3870:806 JLINK_ReadMemU32(0xE000ED00, 0x0001 Items, ...) -- CPU is running -- CPU_ReadMem(4 bytes @ 0xE000ED00) -- Data:  41 C2 0F 41  returns 0x01 (0000ms, 43500ms total)
T4124 3870:806 JLINK_GetDebugInfo(0x10F)  returns 0xFFFFFFFF (0000ms, 43500ms total)
T4124 3870:806 JLINK_SetResetType(JLINKARM_RESET_TYPE_NORMAL)  returns JLINKARM_RESET_TYPE_NORMAL (0000ms, 43500ms total)
T4124 3870:806 JLINK_Reset() -- CPU is running -- CPU_WriteMem(4 bytes @ 0xE000EDF0) -- CPU is running -- CPU_WriteMem(4 bytes @ 0xE000EDFC) >0x35 TIF> -- CPU is running -- CPU_WriteMem(4 bytes @ 0xE000ED0C) -- CPU is running -- CPU_ReadMem(4 bytes @ 0xE000EDF0) -- CPU is running -- CPU_ReadMem(4 bytes @ 0xE000EDF0) -- CPU is running -- CPU_WriteMem(4 bytes @ 0xE000EDF0) -- CPU is running -- CPU_WriteMem(4 bytes @ 0xE000EDFC) -- CPU is running -- CPU_ReadMem(4 bytes @ 0xE000EDF0)
 -- CPU_WriteMem(4 bytes @ 0xE0002000) -- CPU_ReadMem(4 bytes @ 0xE000EDFC) -- CPU_ReadMem(4 bytes @ 0xE0001000) (0019ms, 43519ms total)
T4124 3870:825 JLINK_ReadReg(R15 (PC))  returns 0x08003CD0 (0000ms, 43519ms total)
T4124 3870:825 JLINK_ReadReg(XPSR)  returns 0x01000000 (0000ms, 43519ms total)
T4124 3870:825 JLINK_Halt()  returns 0x00 (0000ms, 43519ms total)
T4124 3870:825 JLINK_ReadMemU32(0xE000EDF0, 0x0001 Items, ...) -- CPU_ReadMem(4 bytes @ 0xE000EDF0) -- Data:  03 00 03 00  returns 0x01 (0000ms, 43519ms total)
T4124 3870:825 JLINK_WriteU32(0xE000EDF0, 0xA05F0003) -- CPU_WriteMem(4 bytes @ 0xE000EDF0)  returns 0x00 (0001ms, 43520ms total)
T4124 3870:826 JLINK_WriteU32(0xE000EDFC, 0x01000000) -- CPU_WriteMem(4 bytes @ 0xE000EDFC)  returns 0x00 (0000ms, 43520ms total)
T4124 3870:826 JLINK_GetHWStatus(...)  returns 0x00 (0000ms, 43520ms total)
T4124 3870:826 JLINK_GetNumBPUnits(Type = 0xFFFFFF00)  returns 0x06 (0000ms, 43520ms total)
T4124 3870:826 JLINK_GetNumBPUnits(Type = 0xF0)  returns 0x2000 (0000ms, 43520ms total)
T4124 3870:826 JLINK_GetNumWPUnits()  returns 0x04 (0000ms, 43520ms total)
T4124 3870:826 JLINK_GetSpeed()  returns 0xFA0 (0000ms, 43520ms total)
T4124 3870:826 JLINK_ReadMemU32(0xE000E004, 0x0001 Items, ...) -- CPU_ReadMem(4 bytes @ 0xE000E004) -- Data:  02 00 00 00  returns 0x01 (0001ms, 43521ms total)
T4124 3870:827 JLINK_ReadMemU32(0xE000E004, 0x0001 Items, ...) -- CPU_ReadMem(4 bytes @ 0xE000E004) -- Data:  02 00 00 00  returns 0x01 (0000ms, 43521ms total)
T4124 3870:827 JLINK_WriteMemEx(0xE0001000, 0x001C Bytes, ..., AccessWidth = 33554436) -- Data:  01 00 00 00 00 00 00 00 00 00 00 00 00 00 00 00 ... -- CPU_WriteMem(28 bytes @ 0xE0001000)  returns 0x1C (0001ms, 43522ms total)
T4124 3870:828 JLINK_ReadReg(R15 (PC))  returns 0x08003CD0 (0000ms, 43522ms total)
T4124 3870:828 JLINK_ReadReg(XPSR)  returns 0x01000000 (0000ms, 43522ms total)
T4124 3870:836 JLINK_ReadMemEx(0xE0001004, 0x0004 Bytes, ..., AccessWidth = 33554432)Mis-aligned memory read: Address: 0xE0001004, NumBytes: 4, Alignment: 2 (Halfword-aligned)
  ***** Mis-aligned memory read: Address: 0xE0001004, NumBytes: 4, Alignment: 2 (Halfword-aligned) -- CPU_ReadMem(4 bytes @ 0xE0001004) -- Data:  00 00 00 00  returns 0x04 (0001ms, 43523ms total)
T4124 3870:914 JLINK_SetResetType(JLINKARM_RESET_TYPE_NORMAL)  returns JLINKARM_RESET_TYPE_NORMAL (0000ms, 43523ms total)
T4124 3870:914 JLINK_Reset() -- CPU_WriteMem(4 bytes @ 0xE000EDF0) -- CPU_WriteMem(4 bytes @ 0xE000EDFC) >0x35 TIF> -- CPU_WriteMem(4 bytes @ 0xE000ED0C) -- CPU_ReadMem(4 bytes @ 0xE000EDF0) -- CPU_ReadMem(4 bytes @ 0xE000EDF0) -- CPU_WriteMem(4 bytes @ 0xE000EDF0) -- CPU_WriteMem(4 bytes @ 0xE000EDFC) -- CPU is running -- CPU_ReadMem(4 bytes @ 0xE000EDF0) -- CPU_WriteMem(4 bytes @ 0xE0002000) -- CPU_ReadMem(4 bytes @ 0xE000EDFC) -- CPU_ReadMem(4 bytes @ 0xE0001000) (0018ms, 43541ms total)
T4124 3870:932 JLINK_ReadReg(R15 (PC))  returns 0x08003CD0 (0000ms, 43541ms total)
T4124 3870:932 JLINK_ReadReg(XPSR)  returns 0x01000000 (0000ms, 43541ms total)
T4124 3870:932 JLINK_ReadMemEx(0x08003CD0, 0x003C Bytes, ..., AccessWidth = 33554432)Mis-aligned memory read: Address: 0x08003CD0, NumBytes: 60, Alignment: 2 (Halfword-aligned)
  ***** Mis-aligned memory read: Address: 0x08003CD0, NumBytes: 60, Alignment: 2 (Halfword-aligned) -- CPU_ReadMem(60 bytes @ 0x08003CD0) -- Data:  06 48 80 47 06 48 00 47 FE E7 FE E7 FE E7 FE E7 ...  returns 0x3C (0002ms, 43543ms total)
T4124 3871:058 JLINK_ReadMemEx(0x40010000, 0x0010 Bytes, ..., AccessWidth = 33554436) -- CPU_ReadMem(16 bytes @ 0x40010000) -- Data:  00 00 00 00 00 00 00 00 00 00 00 00 00 00 00 00  returns 0x10 (0000ms, 43543ms total)
T4124 3871:059 JLINK_ReadMemEx(0x40010010, 0x0004 Bytes, ..., AccessWidth = 33554436) -- CPU_ReadMem(4 bytes @ 0x40010010) -- Data:  00 00 00 00  returns 0x04 (0000ms, 43543ms total)
T4124 3871:059 JLINK_ReadMemEx(0x40010018, 0x0014 Bytes, ..., AccessWidth = 33554436) -- CPU_ReadMem(20 bytes @ 0x40010018) -- Data:  00 00 00 00 00 00 00 00 00 00 00 00 00 00 00 00 ...  returns 0x14 (0001ms, 43544ms total)
T4124 3871:060 JLINK_ReadMemEx(0x4001002C, 0x0004 Bytes, ..., AccessWidth = 33554436) -- CPU_ReadMem(4 bytes @ 0x4001002C) -- Data:  00 00 00 00  returns 0x04 (0000ms, 43544ms total)
T4124 3871:060 JLINK_ReadMemEx(0x40010030, 0x0004 Bytes, ..., AccessWidth = 33554436) -- CPU_ReadMem(4 bytes @ 0x40010030) -- Data:  00 00 00 00  returns 0x04 (0001ms, 43545ms total)
T4124 3871:061 JLINK_ReadMemEx(0x40010034, 0x000C Bytes, ..., AccessWidth = 33554436) -- CPU_ReadMem(12 bytes @ 0x40010034) -- Data:  00 00 00 00 00 00 00 00 00 00 00 00  returns 0x0C (0000ms, 43545ms total)
T4124 3871:061 JLINK_ReadMemEx(0x40010040, 0x0004 Bytes, ..., AccessWidth = 33554436) -- CPU_ReadMem(4 bytes @ 0x40010040) -- Data:  00 00 00 00  returns 0x04 (0001ms, 43546ms total)
T4124 3871:062 JLINK_ReadMemEx(0x40010044, 0x0004 Bytes, ..., AccessWidth = 33554436) -- CPU_ReadMem(4 bytes @ 0x40010044) -- Data:  00 00 00 00  returns 0x04 (0000ms, 43546ms total)
T4124 3871:062 JLINK_ReadMemEx(0x40010048, 0x0004 Bytes, ..., AccessWidth = 33554436) -- CPU_ReadMem(4 bytes @ 0x40010048) -- Data:  00 00 00 00  returns 0x04 (0000ms, 43546ms total)
T4124 3871:062 JLINK_ReadMemEx(0x4001004C, 0x0004 Bytes, ..., AccessWidth = 33554436) -- CPU_ReadMem(4 bytes @ 0x4001004C) -- Data:  00 00 00 00  returns 0x04 (0001ms, 43547ms total)
T4124 3872:848 JLINK_ReadReg(R0)  returns 0x00000000 (0001ms, 43548ms total)
T4124 3872:849 JLINK_ReadReg(R1)  returns 0x00000000 (0000ms, 43548ms total)
T4124 3872:849 JLINK_ReadReg(R2)  returns 0x00000000 (0000ms, 43548ms total)
T4124 3872:849 JLINK_ReadReg(R3)  returns 0x00000000 (0000ms, 43548ms total)
T4124 3872:849 JLINK_ReadReg(R4)  returns 0x00000000 (0000ms, 43548ms total)
T4124 3872:849 JLINK_ReadReg(R5)  returns 0x00000000 (0000ms, 43548ms total)
T4124 3872:849 JLINK_ReadReg(R6)  returns 0x00000000 (0000ms, 43548ms total)
T4124 3872:849 JLINK_ReadReg(R7)  returns 0x00000000 (0000ms, 43548ms total)
T4124 3872:849 JLINK_ReadReg(R8)  returns 0x00000000 (0000ms, 43548ms total)
T4124 3872:849 JLINK_ReadReg(R9)  returns 0x00000000 (0000ms, 43548ms total)
T4124 3872:849 JLINK_ReadReg(R10)  returns 0x00000000 (0000ms, 43548ms total)
T4124 3872:849 JLINK_ReadReg(R11)  returns 0x00000000 (0000ms, 43548ms total)
T4124 3872:849 JLINK_ReadReg(R12)  returns 0x00000000 (0000ms, 43548ms total)
T4124 3872:849 JLINK_ReadReg(R13 (SP))  returns 0x20001980 (0000ms, 43548ms total)
T4124 3872:849 JLINK_ReadReg(R14)  returns 0xFFFFFFFF (0000ms, 43548ms total)
T4124 3872:849 JLINK_ReadReg(R15 (PC))  returns 0x08003CD0 (0000ms, 43548ms total)
T4124 3872:849 JLINK_ReadReg(XPSR)  returns 0x01000000 (0000ms, 43548ms total)
T4124 3872:849 JLINK_ReadReg(MSP)  returns 0x20001980 (0000ms, 43548ms total)
T4124 3872:849 JLINK_ReadReg(PSP)  returns 0x00000000 (0000ms, 43548ms total)
T4124 3872:849 JLINK_ReadReg(CFBP)  returns 0x00000000 (0000ms, 43548ms total)
T4124 3872:849 JLINK_ReadReg(FPSCR)  returns 0x00000000 (0005ms, 43553ms total)
T4124 3872:854 JLINK_ReadReg(FPS0)  returns 0x00000000 (0000ms, 43553ms total)
T4124 3872:854 JLINK_ReadReg(FPS1)  returns 0x00000000 (0000ms, 43553ms total)
T4124 3872:854 JLINK_ReadReg(FPS2)  returns 0x00000000 (0000ms, 43553ms total)
T4124 3872:854 JLINK_ReadReg(FPS3)  returns 0x00000000 (0000ms, 43553ms total)
T4124 3872:854 JLINK_ReadReg(FPS4)  returns 0x00000000 (0000ms, 43553ms total)
T4124 3872:854 JLINK_ReadReg(FPS5)  returns 0x00000000 (0000ms, 43553ms total)
T4124 3872:854 JLINK_ReadReg(FPS6)  returns 0x00000000 (0000ms, 43553ms total)
T4124 3872:854 JLINK_ReadReg(FPS7)  returns 0x00000000 (0000ms, 43553ms total)
T4124 3872:854 JLINK_ReadReg(FPS8)  returns 0x00000000 (0000ms, 43553ms total)
T4124 3872:854 JLINK_ReadReg(FPS9)  returns 0x00000000 (0000ms, 43553ms total)
T4124 3872:854 JLINK_ReadReg(FPS10)  returns 0x00000000 (0000ms, 43553ms total)
T4124 3872:854 JLINK_ReadReg(FPS11)  returns 0x00000000 (0000ms, 43553ms total)
T4124 3872:854 JLINK_ReadReg(FPS12)  returns 0x00000000 (0000ms, 43553ms total)
T4124 3872:854 JLINK_ReadReg(FPS13)  returns 0x00000000 (0000ms, 43553ms total)
T4124 3872:854 JLINK_ReadReg(FPS14)  returns 0x00000000 (0000ms, 43553ms total)
T4124 3872:854 JLINK_ReadReg(FPS15)  returns 0x00000000 (0000ms, 43553ms total)
T4124 3872:854 JLINK_ReadReg(FPS16)  returns 0x00000000 (0000ms, 43553ms total)
T4124 3872:854 JLINK_ReadReg(FPS17)  returns 0x00000000 (0000ms, 43553ms total)
T4124 3872:854 JLINK_ReadReg(FPS18)  returns 0x00000000 (0000ms, 43553ms total)
T4124 3872:854 JLINK_ReadReg(FPS19)  returns 0x00000000 (0000ms, 43553ms total)
T4124 3872:854 JLINK_ReadReg(FPS20)  returns 0x00000000 (0000ms, 43553ms total)
T4124 3872:854 JLINK_ReadReg(FPS21)  returns 0x00000000 (0000ms, 43553ms total)
T4124 3872:854 JLINK_ReadReg(FPS22)  returns 0x00000000 (0000ms, 43553ms total)
T4124 3872:854 JLINK_ReadReg(FPS23)  returns 0x00000000 (0001ms, 43554ms total)
T4124 3872:855 JLINK_ReadReg(FPS24)  returns 0x00000000 (0000ms, 43554ms total)
T4124 3872:855 JLINK_ReadReg(FPS25)  returns 0x00000000 (0000ms, 43554ms total)
T4124 3872:855 JLINK_ReadReg(FPS26)  returns 0x00000000 (0000ms, 43554ms total)
T4124 3872:855 JLINK_ReadReg(FPS27)  returns 0x00000000 (0000ms, 43554ms total)
T4124 3872:855 JLINK_ReadReg(FPS28)  returns 0x00000000 (0000ms, 43554ms total)
T4124 3872:855 JLINK_ReadReg(FPS29)  returns 0x00000000 (0000ms, 43554ms total)
T4124 3872:855 JLINK_ReadReg(FPS30)  returns 0x00000000 (0000ms, 43554ms total)
T4124 3872:855 JLINK_ReadReg(FPS31)  returns 0x00000000 (0000ms, 43554ms total)
T3614 3873:040 JLINK_ReadMemEx(0x08003CD0, 0x0002 Bytes, ..., AccessWidth = 33554432)Mis-aligned memory read: Address: 0x08003CD0, NumBytes: 2, Alignment: 2 (Halfword-aligned)
  ***** Mis-aligned memory read: Address: 0x08003CD0, NumBytes: 2, Alignment: 2 (Halfword-aligned) -- CPU_ReadMem(2 bytes @ 0x08003CD0) -- Data:  06 48  returns 0x02 (0000ms, 43554ms total)
T3614 3873:040 JLINK_SetBPEx(Addr = 0x080001A0, Type = 0xFFFFFFF2)  returns 0x00000001 (0000ms, 43554ms total)
T3614 3873:040 JLINK_Go() -- CPU_WriteMem(4 bytes @ 0xE0002000) -- CPU_WriteMem(4 bytes @ 0xE0002008) -- CPU_WriteMem(4 bytes @ 0xE000200C) -- CPU_WriteMem(4 bytes @ 0xE0002010) -- CPU_WriteMem(4 bytes @ 0xE0002014) -- CPU_WriteMem(4 bytes @ 0xE0002018) -- CPU_WriteMem(4 bytes @ 0xE000201C) -- CPU_WriteMem(4 bytes @ 0xE0001004) (0004ms, 43558ms total)
T3614 3873:145 JLINK_IsHalted()  returns TRUE (0003ms, 43561ms total)
T3614 3873:148 JLINK_Halt()  returns 0x00 (0000ms, 43558ms total)
T3614 3873:148 JLINK_IsHalted()  returns TRUE (0000ms, 43558ms total)
T3614 3873:148 JLINK_IsHalted()  returns TRUE (0000ms, 43558ms total)
T3614 3873:148 JLINK_IsHalted()  returns TRUE (0000ms, 43558ms total)
T3614 3873:148 JLINK_ReadReg(R15 (PC))  returns 0x080001A0 (0000ms, 43558ms total)
T3614 3873:148 JLINK_ReadReg(XPSR)  returns 0x61000000 (0000ms, 43558ms total)
T3614 3873:148 JLINK_ClrBPEx(BPHandle = 0x00000001)  returns 0x00 (0000ms, 43558ms total)
T3614 3873:148 JLINK_ReadMemU32(0xE000ED30, 0x0001 Items, ...) -- CPU_ReadMem(4 bytes @ 0xE000ED30) -- Data:  03 00 00 00  returns 0x01 (0001ms, 43559ms total)
T3614 3873:149 JLINK_ReadMemU32(0xE0001028, 0x0001 Items, ...) -- CPU_ReadMem(4 bytes @ 0xE0001028) -- Data:  00 00 00 00  returns 0x01 (0000ms, 43559ms total)
T3614 3873:149 JLINK_ReadMemU32(0xE0001038, 0x0001 Items, ...) -- CPU_ReadMem(4 bytes @ 0xE0001038) -- Data:  00 02 00 00  returns 0x01 (0001ms, 43560ms total)
T3614 3873:150 JLINK_ReadMemU32(0xE0001048, 0x0001 Items, ...) -- CPU_ReadMem(4 bytes @ 0xE0001048) -- Data:  00 00 00 00  returns 0x01 (0000ms, 43560ms total)
T3614 3873:150 JLINK_ReadMemU32(0xE0001058, 0x0001 Items, ...) -- CPU_ReadMem(4 bytes @ 0xE0001058) -- Data:  00 00 00 00  returns 0x01 (0001ms, 43561ms total)
T3614 3873:151 JLINK_ReadReg(R0)  returns 0x080001A1 (0000ms, 43561ms total)
T3614 3873:151 JLINK_ReadReg(R1)  returns 0x20001980 (0000ms, 43561ms total)
T3614 3873:151 JLINK_ReadReg(R2)  returns 0x00000000 (0000ms, 43561ms total)
T3614 3873:151 JLINK_ReadReg(R3)  returns 0x0800C15D (0000ms, 43561ms total)
T3614 3873:151 JLINK_ReadReg(R4)  returns 0x0800C824 (0000ms, 43561ms total)
T3614 3873:151 JLINK_ReadReg(R5)  returns 0x0800C824 (0000ms, 43561ms total)
T3614 3873:151 JLINK_ReadReg(R6)  returns 0x00000000 (0000ms, 43561ms total)
T3614 3873:151 JLINK_ReadReg(R7)  returns 0x00000000 (0000ms, 43561ms total)
T3614 3873:151 JLINK_ReadReg(R8)  returns 0x00000000 (0000ms, 43561ms total)
T3614 3873:151 JLINK_ReadReg(R9)  returns 0x00000000 (0000ms, 43561ms total)
T3614 3873:151 JLINK_ReadReg(R10)  returns 0x00000000 (0000ms, 43561ms total)
T3614 3873:151 JLINK_ReadReg(R11)  returns 0x00000000 (0000ms, 43561ms total)
T3614 3873:151 JLINK_ReadReg(R12)  returns 0x00000000 (0000ms, 43561ms total)
T3614 3873:151 JLINK_ReadReg(R13 (SP))  returns 0x20001980 (0000ms, 43561ms total)
T3614 3873:151 JLINK_ReadReg(R14)  returns 0x0800C125 (0000ms, 43561ms total)
T3614 3873:151 JLINK_ReadReg(R15 (PC))  returns 0x080001A0 (0000ms, 43561ms total)
T3614 3873:151 JLINK_ReadReg(XPSR)  returns 0x61000000 (0001ms, 43562ms total)
T3614 3873:152 JLINK_ReadReg(MSP)  returns 0x20001980 (0000ms, 43562ms total)
T3614 3873:152 JLINK_ReadReg(PSP)  returns 0x00000000 (0000ms, 43562ms total)
T3614 3873:152 JLINK_ReadReg(CFBP)  returns 0x00000000 (0000ms, 43562ms total)
T3614 3873:152 JLINK_ReadReg(FPSCR)  returns 0x00000000 (0004ms, 43566ms total)
T3614 3873:156 JLINK_ReadReg(FPS0)  returns 0x00000000 (0000ms, 43566ms total)
T3614 3873:156 JLINK_ReadReg(FPS1)  returns 0x00000000 (0000ms, 43566ms total)
T3614 3873:156 JLINK_ReadReg(FPS2)  returns 0x00000000 (0000ms, 43566ms total)
T3614 3873:156 JLINK_ReadReg(FPS3)  returns 0x00000000 (0000ms, 43566ms total)
T3614 3873:156 JLINK_ReadReg(FPS4)  returns 0x00000000 (0000ms, 43566ms total)
T3614 3873:156 JLINK_ReadReg(FPS5)  returns 0x00000000 (0000ms, 43566ms total)
T3614 3873:156 JLINK_ReadReg(FPS6)  returns 0x00000000 (0000ms, 43566ms total)
T3614 3873:156 JLINK_ReadReg(FPS7)  returns 0x00000000 (0000ms, 43566ms total)
T3614 3873:156 JLINK_ReadReg(FPS8)  returns 0x00000000 (0000ms, 43566ms total)
T3614 3873:156 JLINK_ReadReg(FPS9)  returns 0x00000000 (0000ms, 43566ms total)
T3614 3873:156 JLINK_ReadReg(FPS10)  returns 0x00000000 (0000ms, 43566ms total)
T3614 3873:156 JLINK_ReadReg(FPS11)  returns 0x00000000 (0000ms, 43566ms total)
T3614 3873:156 JLINK_ReadReg(FPS12)  returns 0x00000000 (0000ms, 43566ms total)
T3614 3873:156 JLINK_ReadReg(FPS13)  returns 0x00000000 (0000ms, 43566ms total)
T3614 3873:156 JLINK_ReadReg(FPS14)  returns 0x00000000 (0000ms, 43566ms total)
T3614 3873:156 JLINK_ReadReg(FPS15)  returns 0x00000000 (0000ms, 43566ms total)
T3614 3873:156 JLINK_ReadReg(FPS16)  returns 0x00000000 (0000ms, 43566ms total)
T3614 3873:156 JLINK_ReadReg(FPS17)  returns 0x00000000 (0000ms, 43566ms total)
T3614 3873:156 JLINK_ReadReg(FPS18)  returns 0x00000000 (0000ms, 43566ms total)
T3614 3873:156 JLINK_ReadReg(FPS19)  returns 0x00000000 (0000ms, 43566ms total)
T3614 3873:156 JLINK_ReadReg(FPS20)  returns 0x00000000 (0000ms, 43566ms total)
T3614 3873:156 JLINK_ReadReg(FPS21)  returns 0x00000000 (0000ms, 43566ms total)
T3614 3873:156 JLINK_ReadReg(FPS22)  returns 0x00000000 (0000ms, 43566ms total)
T3614 3873:156 JLINK_ReadReg(FPS23)  returns 0x00000000 (0000ms, 43566ms total)
T3614 3873:156 JLINK_ReadReg(FPS24)  returns 0x00000000 (0000ms, 43566ms total)
T3614 3873:156 JLINK_ReadReg(FPS25)  returns 0x00000000 (0000ms, 43566ms total)
T3614 3873:156 JLINK_ReadReg(FPS26)  returns 0x00000000 (0000ms, 43566ms total)
T3614 3873:156 JLINK_ReadReg(FPS27)  returns 0x00000000 (0000ms, 43566ms total)
T3614 3873:156 JLINK_ReadReg(FPS28)  returns 0x00000000 (0000ms, 43566ms total)
T3614 3873:156 JLINK_ReadReg(FPS29)  returns 0x00000000 (0000ms, 43566ms total)
T3614 3873:156 JLINK_ReadReg(FPS30)  returns 0x00000000 (0001ms, 43567ms total)
T3614 3873:157 JLINK_ReadReg(FPS31)  returns 0x00000000 (0000ms, 43567ms total)
T4124 3873:162 JLINK_ReadMemEx(0x40010000, 0x0010 Bytes, ..., AccessWidth = 33554436) -- CPU_ReadMem(16 bytes @ 0x40010000) -- Data:  00 00 00 00 00 00 00 00 00 00 00 00 00 00 00 00  returns 0x10 (0000ms, 43567ms total)
T4124 3873:162 JLINK_ReadMemEx(0x40010010, 0x0004 Bytes, ..., AccessWidth = 33554436) -- CPU_ReadMem(4 bytes @ 0x40010010) -- Data:  00 00 00 00  returns 0x04 (0001ms, 43568ms total)
T4124 3873:163 JLINK_ReadMemEx(0x40010018, 0x0014 Bytes, ..., AccessWidth = 33554436) -- CPU_ReadMem(20 bytes @ 0x40010018) -- Data:  00 00 00 00 00 00 00 00 00 00 00 00 00 00 00 00 ...  returns 0x14 (0000ms, 43568ms total)
T4124 3873:163 JLINK_ReadMemEx(0x4001002C, 0x0004 Bytes, ..., AccessWidth = 33554436) -- CPU_ReadMem(4 bytes @ 0x4001002C) -- Data:  00 00 00 00  returns 0x04 (0001ms, 43569ms total)
T4124 3873:164 JLINK_ReadMemEx(0x40010030, 0x0004 Bytes, ..., AccessWidth = 33554436) -- CPU_ReadMem(4 bytes @ 0x40010030) -- Data:  00 00 00 00  returns 0x04 (0000ms, 43569ms total)
T4124 3873:164 JLINK_ReadMemEx(0x40010034, 0x000C Bytes, ..., AccessWidth = 33554436) -- CPU_ReadMem(12 bytes @ 0x40010034) -- Data:  00 00 00 00 00 00 00 00 00 00 00 00  returns 0x0C (0000ms, 43569ms total)
T4124 3873:164 JLINK_ReadMemEx(0x40010040, 0x0004 Bytes, ..., AccessWidth = 33554436) -- CPU_ReadMem(4 bytes @ 0x40010040) -- Data:  00 00 00 00  returns 0x04 (0001ms, 43570ms total)
T4124 3873:165 JLINK_ReadMemEx(0x40010044, 0x0004 Bytes, ..., AccessWidth = 33554436) -- CPU_ReadMem(4 bytes @ 0x40010044) -- Data:  00 00 00 00  returns 0x04 (0001ms, 43571ms total)
T4124 3873:166 JLINK_ReadMemEx(0x40010048, 0x0004 Bytes, ..., AccessWidth = 33554436) -- CPU_ReadMem(4 bytes @ 0x40010048) -- Data:  00 00 00 00  returns 0x04 (0000ms, 43571ms total)
T4124 3873:166 JLINK_ReadMemEx(0x4001004C, 0x0004 Bytes, ..., AccessWidth = 33554436) -- CPU_ReadMem(4 bytes @ 0x4001004C) -- Data:  00 00 00 00  returns 0x04 (0001ms, 43572ms total)
T3614 3873:885 JLINK_ReadMemEx(0x080001A0, 0x0002 Bytes, ..., AccessWidth = 33554432)Mis-aligned memory read: Address: 0x080001A0, NumBytes: 2, Alignment: 2 (Halfword-aligned)
  ***** Mis-aligned memory read: Address: 0x080001A0, NumBytes: 2, Alignment: 2 (Halfword-aligned) -- CPU_ReadMem(64 bytes @ 0x08000180) -- Updating DA cache (64 bytes @ 0x08000180) -- Read from DA cache (2 bytes @ 0x080001A0) -- Data:  01 F0  returns 0x02 (0005ms, 43577ms total)
T3614 3873:890 JLINK_Go() -- CPU_WriteMem(4 bytes @ 0xE0002008) (0001ms, 43578ms total)
T3614 3873:992 JLINK_IsHalted()  returns FALSE (0000ms, 43578ms total)
T3614 3874:093 JLINK_IsHalted()  returns FALSE (0000ms, 43578ms total)
T3614 3874:194 JLINK_IsHalted()  returns FALSE (0000ms, 43578ms total)
T3614 3874:295 JLINK_IsHalted()  returns FALSE (0000ms, 43578ms total)
T3614 3874:396 JLINK_ReadMemU32(0xE0001004, 0x0001 Items, ...) -- CPU is running -- CPU_ReadMem(4 bytes @ 0xE0001004) -- Data:  F3 83 11 05  returns 0x01 (0001ms, 43579ms total)
T4124 3874:402 JLINK_ReadMemEx(0x40010000, 0x0010 Bytes, ..., AccessWidth = 33554436) -- CPU is running -- CPU_ReadMem(16 bytes @ 0x40010000) -- Data:  81 00 00 00 00 55 00 00 00 00 00 00 00 00 00 00  returns 0x10 (0001ms, 43580ms total)
T4124 3874:403 JLINK_ReadMemEx(0x40010010, 0x0004 Bytes, ..., AccessWidth = 33554436) -- CPU is running -- CPU_ReadMem(4 bytes @ 0x40010010) -- Data:  1F 00 00 00  returns 0x04 (0000ms, 43580ms total)
T4124 3874:403 JLINK_ReadMemEx(0x40010018, 0x0014 Bytes, ..., AccessWidth = 33554436) -- CPU is running -- CPU_ReadMem(20 bytes @ 0x40010018) -- Data:  68 68 00 00 68 68 00 00 99 19 00 00 BA 14 00 00 ...  returns 0x14 (0001ms, 43581ms total)
T4124 3874:404 JLINK_ReadMemEx(0x4001002C, 0x0004 Bytes, ..., AccessWidth = 33554436) -- CPU is running -- CPU_ReadMem(4 bytes @ 0x4001002C) -- Data:  10 27 00 00  returns 0x04 (0001ms, 43582ms total)
T4124 3874:405 JLINK_ReadMemEx(0x40010030, 0x0004 Bytes, ..., AccessWidth = 33554436) -- CPU is running -- CPU_ReadMem(4 bytes @ 0x40010030) -- Data:  00 00 00 00  returns 0x04 (0000ms, 43582ms total)
T4124 3874:405 JLINK_ReadMemEx(0x40010034, 0x000C Bytes, ..., AccessWidth = 33554436) -- CPU is running -- CPU_ReadMem(12 bytes @ 0x40010034) -- Data:  A0 0F 00 00 A0 0F 00 00 A0 0F 00 00  returns 0x0C (0001ms, 43583ms total)
T4124 3874:406 JLINK_ReadMemEx(0x40010040, 0x0004 Bytes, ..., AccessWidth = 33554436) -- CPU is running -- CPU_ReadMem(4 bytes @ 0x40010040) -- Data:  A0 0F 00 00  returns 0x04 (0001ms, 43584ms total)
T4124 3874:407 JLINK_ReadMemEx(0x40010044, 0x0004 Bytes, ..., AccessWidth = 33554436) -- CPU is running -- CPU_ReadMem(4 bytes @ 0x40010044) -- Data:  00 80 00 00  returns 0x04 (0000ms, 43584ms total)
T4124 3874:407 JLINK_ReadMemEx(0x40010048, 0x0004 Bytes, ..., AccessWidth = 33554436) -- CPU is running -- CPU_ReadMem(4 bytes @ 0x40010048) -- Data:  00 00 00 00  returns 0x04 (0000ms, 43584ms total)
T4124 3874:407 JLINK_ReadMemEx(0x4001004C, 0x0004 Bytes, ..., AccessWidth = 33554436) -- CPU is running -- CPU_ReadMem(4 bytes @ 0x4001004C) -- Data:  81 00 00 00  returns 0x04 (0001ms, 43585ms total)
T3614 3874:506 JLINK_IsHalted()  returns FALSE (0000ms, 43585ms total)
T3614 3874:607 JLINK_IsHalted()  returns FALSE (0000ms, 43585ms total)
T3614 3874:707 JLINK_IsHalted()  returns FALSE (0001ms, 43586ms total)
T3614 3874:808 JLINK_IsHalted()  returns FALSE (0000ms, 43585ms total)
T3614 3874:909 JLINK_IsHalted()  returns FALSE (0000ms, 43585ms total)
T3614 3875:011 JLINK_ReadMemU32(0xE0001004, 0x0001 Items, ...) -- CPU is running -- CPU_ReadMem(4 bytes @ 0xE0001004) -- Data:  3B 82 3B 0B  returns 0x01 (0000ms, 43585ms total)
T4124 3875:022 JLINK_ReadMemEx(0x40010000, 0x0010 Bytes, ..., AccessWidth = 33554436) -- CPU is running -- CPU_ReadMem(16 bytes @ 0x40010000) -- Data:  81 00 00 00 00 55 00 00 00 00 00 00 00 00 00 00  returns 0x10 (0000ms, 43585ms total)
T4124 3875:022 JLINK_ReadMemEx(0x40010010, 0x0004 Bytes, ..., AccessWidth = 33554436) -- CPU is running -- CPU_ReadMem(4 bytes @ 0x40010010) -- Data:  1F 00 00 00  returns 0x04 (0001ms, 43586ms total)
T4124 3875:023 JLINK_ReadMemEx(0x40010018, 0x0014 Bytes, ..., AccessWidth = 33554436) -- CPU is running -- CPU_ReadMem(20 bytes @ 0x40010018) -- Data:  68 68 00 00 68 68 00 00 99 19 00 00 90 15 00 00 ...  returns 0x14 (0001ms, 43587ms total)
T4124 3875:024 JLINK_ReadMemEx(0x4001002C, 0x0004 Bytes, ..., AccessWidth = 33554436) -- CPU is running -- CPU_ReadMem(4 bytes @ 0x4001002C) -- Data:  10 27 00 00  returns 0x04 (0000ms, 43587ms total)
T4124 3875:024 JLINK_ReadMemEx(0x40010030, 0x0004 Bytes, ..., AccessWidth = 33554436) -- CPU is running -- CPU_ReadMem(4 bytes @ 0x40010030) -- Data:  00 00 00 00  returns 0x04 (0001ms, 43588ms total)
T4124 3875:025 JLINK_ReadMemEx(0x40010034, 0x000C Bytes, ..., AccessWidth = 33554436) -- CPU is running -- CPU_ReadMem(12 bytes @ 0x40010034) -- Data:  A0 0F 00 00 A0 0F 00 00 A0 0F 00 00  returns 0x0C (0000ms, 43588ms total)
T4124 3875:025 JLINK_ReadMemEx(0x40010040, 0x0004 Bytes, ..., AccessWidth = 33554436) -- CPU is running -- CPU_ReadMem(4 bytes @ 0x40010040) -- Data:  A0 0F 00 00  returns 0x04 (0000ms, 43588ms total)
T4124 3875:025 JLINK_ReadMemEx(0x40010044, 0x0004 Bytes, ..., AccessWidth = 33554436) -- CPU is running -- CPU_ReadMem(4 bytes @ 0x40010044) -- Data:  00 80 00 00  returns 0x04 (0001ms, 43589ms total)
T4124 3875:026 JLINK_ReadMemEx(0x40010048, 0x0004 Bytes, ..., AccessWidth = 33554436) -- CPU is running -- CPU_ReadMem(4 bytes @ 0x40010048) -- Data:  00 00 00 00  returns 0x04 (0000ms, 43589ms total)
T4124 3875:026 JLINK_ReadMemEx(0x4001004C, 0x0004 Bytes, ..., AccessWidth = 33554436) -- CPU is running -- CPU_ReadMem(4 bytes @ 0x4001004C) -- Data:  81 00 00 00  returns 0x04 (0001ms, 43590ms total)
T3614 3875:032 JLINK_IsHalted()  returns FALSE (0001ms, 43591ms total)
T3614 3875:134 JLINK_IsHalted()  returns FALSE (0000ms, 43590ms total)
T3614 3875:235 JLINK_IsHalted()  returns FALSE (0000ms, 43590ms total)
T3614 3875:336 JLINK_IsHalted()  returns FALSE (0000ms, 43590ms total)
T3614 3875:437 JLINK_IsHalted()  returns FALSE (0000ms, 43590ms total)
T3614 3875:539 JLINK_ReadMemU32(0xE0001004, 0x0001 Items, ...) -- CPU is running -- CPU_ReadMem(4 bytes @ 0xE0001004) -- Data:  F6 43 87 10  returns 0x01 (0000ms, 43590ms total)
T4124 3875:543 JLINK_ReadMemEx(0x40010000, 0x0010 Bytes, ..., AccessWidth = 33554436) -- CPU is running -- CPU_ReadMem(16 bytes @ 0x40010000) -- Data:  81 00 00 00 00 55 00 00 00 00 00 00 00 00 00 00  returns 0x10 (0001ms, 43591ms total)
T4124 3875:544 JLINK_ReadMemEx(0x40010010, 0x0004 Bytes, ..., AccessWidth = 33554436) -- CPU is running -- CPU_ReadMem(4 bytes @ 0x40010010) -- Data:  1F 00 00 00  returns 0x04 (0001ms, 43592ms total)
T4124 3875:545 JLINK_ReadMemEx(0x40010018, 0x0014 Bytes, ..., AccessWidth = 33554436) -- CPU is running -- CPU_ReadMem(20 bytes @ 0x40010018) -- Data:  68 68 00 00 68 68 00 00 99 19 00 00 67 15 00 00 ...  returns 0x14 (0001ms, 43593ms total)
T4124 3875:546 JLINK_ReadMemEx(0x4001002C, 0x0004 Bytes, ..., AccessWidth = 33554436) -- CPU is running -- CPU_ReadMem(4 bytes @ 0x4001002C) -- Data:  10 27 00 00  returns 0x04 (0000ms, 43593ms total)
T4124 3875:546 JLINK_ReadMemEx(0x40010030, 0x0004 Bytes, ..., AccessWidth = 33554436) -- CPU is running -- CPU_ReadMem(4 bytes @ 0x40010030) -- Data:  00 00 00 00  returns 0x04 (0000ms, 43593ms total)
T4124 3875:546 JLINK_ReadMemEx(0x40010034, 0x000C Bytes, ..., AccessWidth = 33554436) -- CPU is running -- CPU_ReadMem(12 bytes @ 0x40010034) -- Data:  A0 0F 00 00 A0 0F 00 00 A0 0F 00 00  returns 0x0C (0001ms, 43594ms total)
T4124 3875:547 JLINK_ReadMemEx(0x40010040, 0x0004 Bytes, ..., AccessWidth = 33554436) -- CPU is running -- CPU_ReadMem(4 bytes @ 0x40010040) -- Data:  A0 0F 00 00  returns 0x04 (0000ms, 43594ms total)
T4124 3875:547 JLINK_ReadMemEx(0x40010044, 0x0004 Bytes, ..., AccessWidth = 33554436) -- CPU is running -- CPU_ReadMem(4 bytes @ 0x40010044) -- Data:  00 80 00 00  returns 0x04 (0001ms, 43595ms total)
T4124 3875:548 JLINK_ReadMemEx(0x40010048, 0x0004 Bytes, ..., AccessWidth = 33554436) -- CPU is running -- CPU_ReadMem(4 bytes @ 0x40010048) -- Data:  00 00 00 00  returns 0x04 (0000ms, 43595ms total)
T4124 3875:548 JLINK_ReadMemEx(0x4001004C, 0x0004 Bytes, ..., AccessWidth = 33554436) -- CPU is running -- CPU_ReadMem(4 bytes @ 0x4001004C) -- Data:  81 00 00 00  returns 0x04 (0000ms, 43595ms total)
T3614 3875:556 JLINK_IsHalted()  returns FALSE (0001ms, 43596ms total)
T3614 3875:657 JLINK_IsHalted()  returns FALSE (0001ms, 43596ms total)
T3614 3875:758 JLINK_IsHalted()  returns FALSE (0001ms, 43596ms total)
T3614 3875:860 JLINK_IsHalted()  returns FALSE (0000ms, 43595ms total)
T3614 3875:961 JLINK_IsHalted()  returns FALSE (0000ms, 43595ms total)
T3614 3876:061 JLINK_ReadMemU32(0xE0001004, 0x0001 Items, ...) -- CPU is running -- CPU_ReadMem(4 bytes @ 0xE0001004) -- Data:  4F 28 C4 15  returns 0x01 (0000ms, 43595ms total)
T4124 3876:065 JLINK_ReadMemEx(0x40010000, 0x0010 Bytes, ..., AccessWidth = 33554436) -- CPU is running -- CPU_ReadMem(16 bytes @ 0x40010000) -- Data:  81 00 00 00 00 55 00 00 00 00 00 00 00 00 00 00  returns 0x10 (0001ms, 43596ms total)
T4124 3876:066 JLINK_ReadMemEx(0x40010010, 0x0004 Bytes, ..., AccessWidth = 33554436) -- CPU is running -- CPU_ReadMem(4 bytes @ 0x40010010) -- Data:  1F 00 00 00  returns 0x04 (0000ms, 43596ms total)
T4124 3876:066 JLINK_ReadMemEx(0x40010018, 0x0014 Bytes, ..., AccessWidth = 33554436) -- CPU is running -- CPU_ReadMem(20 bytes @ 0x40010018) -- Data:  68 68 00 00 68 68 00 00 99 19 00 00 35 15 00 00 ...  returns 0x14 (0001ms, 43597ms total)
T4124 3876:067 JLINK_ReadMemEx(0x4001002C, 0x0004 Bytes, ..., AccessWidth = 33554436) -- CPU is running -- CPU_ReadMem(4 bytes @ 0x4001002C) -- Data:  10 27 00 00  returns 0x04 (0000ms, 43597ms total)
T4124 3876:067 JLINK_ReadMemEx(0x40010030, 0x0004 Bytes, ..., AccessWidth = 33554436) -- CPU is running -- CPU_ReadMem(4 bytes @ 0x40010030) -- Data:  00 00 00 00  returns 0x04 (0001ms, 43598ms total)
T4124 3876:068 JLINK_ReadMemEx(0x40010034, 0x000C Bytes, ..., AccessWidth = 33554436) -- CPU is running -- CPU_ReadMem(12 bytes @ 0x40010034) -- Data:  A0 0F 00 00 A0 0F 00 00 A0 0F 00 00  returns 0x0C (0000ms, 43598ms total)
T4124 3876:068 JLINK_ReadMemEx(0x40010040, 0x0004 Bytes, ..., AccessWidth = 33554436) -- CPU is running -- CPU_ReadMem(4 bytes @ 0x40010040) -- Data:  A0 0F 00 00  returns 0x04 (0001ms, 43599ms total)
T4124 3876:069 JLINK_ReadMemEx(0x40010044, 0x0004 Bytes, ..., AccessWidth = 33554436) -- CPU is running -- CPU_ReadMem(4 bytes @ 0x40010044) -- Data:  00 80 00 00  returns 0x04 (0000ms, 43599ms total)
T4124 3876:069 JLINK_ReadMemEx(0x40010048, 0x0004 Bytes, ..., AccessWidth = 33554436) -- CPU is running -- CPU_ReadMem(4 bytes @ 0x40010048) -- Data:  00 00 00 00  returns 0x04 (0001ms, 43600ms total)
T4124 3876:070 JLINK_ReadMemEx(0x4001004C, 0x0004 Bytes, ..., AccessWidth = 33554436) -- CPU is running -- CPU_ReadMem(4 bytes @ 0x4001004C) -- Data:  81 00 00 00  returns 0x04 (0001ms, 43601ms total)
T3614 3876:077 JLINK_IsHalted()  returns FALSE (0000ms, 43601ms total)
T4124 3876:145 JLINK_ReadMemEx(0x200009A8, 0x0001 Bytes, ..., AccessWidth = 33554432)Mis-aligned memory read: Address: 0x200009A8, NumBytes: 1, Alignment: 2 (Halfword-aligned)
  ***** Mis-aligned memory read: Address: 0x200009A8, NumBytes: 1, Alignment: 2 (Halfword-aligned) -- CPU is running -- CPU_ReadMem(1 bytes @ 0x200009A8) -- Data:  00  returns 0x01 (0001ms, 43602ms total)
T4124 3876:146 JLINK_ReadMemEx(0x200009A9, 0x0001 Bytes, ..., AccessWidth = 33554432)Mis-aligned memory read: Address: 0x200009A9, NumBytes: 1, Alignment: 2 (Halfword-aligned)
  ***** Mis-aligned memory read: Address: 0x200009A9, NumBytes: 1, Alignment: 2 (Halfword-aligned) -- CPU is running -- CPU_ReadMem(1 bytes @ 0x200009A9) -- Data:  00  returns 0x01 (0000ms, 43602ms total)
T4124 3876:146 JLINK_ReadMemEx(0x200009AA, 0x0001 Bytes, ..., AccessWidth = 33554432)Mis-aligned memory read: Address: 0x200009AA, NumBytes: 1, Alignment: 2 (Halfword-aligned)
  ***** Mis-aligned memory read: Address: 0x200009AA, NumBytes: 1, Alignment: 2 (Halfword-aligned) -- CPU is running -- CPU_ReadMem(1 bytes @ 0x200009AA) -- Data:  01  returns 0x01 (0001ms, 43603ms total)
T4124 3876:147 JLINK_ReadMemEx(0x200009A8, 0x0001 Bytes, ..., AccessWidth = 33554432)Mis-aligned memory read: Address: 0x200009A8, NumBytes: 1, Alignment: 2 (Halfword-aligned)
  ***** Mis-aligned memory read: Address: 0x200009A8, NumBytes: 1, Alignment: 2 (Halfword-aligned) -- CPU is running -- CPU_ReadMem(1 bytes @ 0x200009A8) -- Data:  00  returns 0x01 (0000ms, 43603ms total)
T4124 3876:147 JLINK_ReadMemEx(0x200009A9, 0x0001 Bytes, ..., AccessWidth = 33554432)Mis-aligned memory read: Address: 0x200009A9, NumBytes: 1, Alignment: 2 (Halfword-aligned)
  ***** Mis-aligned memory read: Address: 0x200009A9, NumBytes: 1, Alignment: 2 (Halfword-aligned) -- CPU is running -- CPU_ReadMem(1 bytes @ 0x200009A9) -- Data:  00  returns 0x01 (0001ms, 43604ms total)
T4124 3876:148 JLINK_ReadMemEx(0x200009AA, 0x0001 Bytes, ..., AccessWidth = 33554432)Mis-aligned memory read: Address: 0x200009AA, NumBytes: 1, Alignment: 2 (Halfword-aligned)
  ***** Mis-aligned memory read: Address: 0x200009AA, NumBytes: 1, Alignment: 2 (Halfword-aligned) -- CPU is running -- CPU_ReadMem(1 bytes @ 0x200009AA) -- Data:  01  returns 0x01 (0000ms, 43604ms total)
T4124 3876:157 JLINK_ReadMemEx(0x200009A8, 0x0001 Bytes, ..., AccessWidth = 33554432)Mis-aligned memory read: Address: 0x200009A8, NumBytes: 1, Alignment: 2 (Halfword-aligned)
  ***** Mis-aligned memory read: Address: 0x200009A8, NumBytes: 1, Alignment: 2 (Halfword-aligned) -- CPU is running -- CPU_ReadMem(1 bytes @ 0x200009A8) -- Data:  00  returns 0x01 (0001ms, 43605ms total)
T4124 3876:158 JLINK_ReadMemEx(0x200009A9, 0x0001 Bytes, ..., AccessWidth = 33554432)Mis-aligned memory read: Address: 0x200009A9, NumBytes: 1, Alignment: 2 (Halfword-aligned)
  ***** Mis-aligned memory read: Address: 0x200009A9, NumBytes: 1, Alignment: 2 (Halfword-aligned) -- CPU is running -- CPU_ReadMem(1 bytes @ 0x200009A9) -- Data:  00  returns 0x01 (0001ms, 43606ms total)
T4124 3876:159 JLINK_ReadMemEx(0x200009AA, 0x0001 Bytes, ..., AccessWidth = 33554432)Mis-aligned memory read: Address: 0x200009AA, NumBytes: 1, Alignment: 2 (Halfword-aligned)
  ***** Mis-aligned memory read: Address: 0x200009AA, NumBytes: 1, Alignment: 2 (Halfword-aligned) -- CPU is running -- CPU_ReadMem(1 bytes @ 0x200009AA) -- Data:  01  returns 0x01 (0000ms, 43606ms total)
T3614 3876:177 JLINK_IsHalted()  returns FALSE (0000ms, 43606ms total)
T3614 3876:278 JLINK_IsHalted()  returns FALSE (0000ms, 43606ms total)
T3614 3876:379 JLINK_IsHalted()  returns FALSE (0001ms, 43607ms total)
T3614 3876:480 JLINK_IsHalted()  returns FALSE (0000ms, 43606ms total)
T3614 3876:580 JLINK_ReadMemU32(0xE0001004, 0x0001 Items, ...) -- CPU is running -- CPU_ReadMem(4 bytes @ 0xE0001004) -- Data:  8C 59 F8 1A  returns 0x01 (0001ms, 43607ms total)
T4124 3876:585 JLINK_ReadMemEx(0x200009A8, 0x0001 Bytes, ..., AccessWidth = 33554432)Mis-aligned memory read: Address: 0x200009A8, NumBytes: 1, Alignment: 2 (Halfword-aligned)
  ***** Mis-aligned memory read: Address: 0x200009A8, NumBytes: 1, Alignment: 2 (Halfword-aligned) -- CPU is running -- CPU_ReadMem(1 bytes @ 0x200009A8) -- Data:  00  returns 0x01 (0000ms, 43607ms total)
T4124 3876:585 JLINK_ReadMemEx(0x200009A9, 0x0001 Bytes, ..., AccessWidth = 33554432)Mis-aligned memory read: Address: 0x200009A9, NumBytes: 1, Alignment: 2 (Halfword-aligned)
  ***** Mis-aligned memory read: Address: 0x200009A9, NumBytes: 1, Alignment: 2 (Halfword-aligned) -- CPU is running -- CPU_ReadMem(1 bytes @ 0x200009A9) -- Data:  00  returns 0x01 (0001ms, 43608ms total)
T4124 3876:586 JLINK_ReadMemEx(0x200009AA, 0x0001 Bytes, ..., AccessWidth = 33554432)Mis-aligned memory read: Address: 0x200009AA, NumBytes: 1, Alignment: 2 (Halfword-aligned)
  ***** Mis-aligned memory read: Address: 0x200009AA, NumBytes: 1, Alignment: 2 (Halfword-aligned) -- CPU is running -- CPU_ReadMem(1 bytes @ 0x200009AA) -- Data:  01  returns 0x01 (0000ms, 43608ms total)
T4124 3876:594 JLINK_ReadMemEx(0x40010000, 0x0010 Bytes, ..., AccessWidth = 33554436) -- CPU is running -- CPU_ReadMem(16 bytes @ 0x40010000) -- Data:  81 00 00 00 00 55 00 00 00 00 00 00 00 00 00 00  returns 0x10 (0001ms, 43609ms total)
T4124 3876:595 JLINK_ReadMemEx(0x40010010, 0x0004 Bytes, ..., AccessWidth = 33554436) -- CPU is running -- CPU_ReadMem(4 bytes @ 0x40010010) -- Data:  1F 00 00 00  returns 0x04 (0000ms, 43609ms total)
T4124 3876:595 JLINK_ReadMemEx(0x40010018, 0x0014 Bytes, ..., AccessWidth = 33554436) -- CPU is running -- CPU_ReadMem(20 bytes @ 0x40010018) -- Data:  68 68 00 00 68 68 00 00 99 19 00 00 E2 12 00 00 ...  returns 0x14 (0001ms, 43610ms total)
T4124 3876:596 JLINK_ReadMemEx(0x4001002C, 0x0004 Bytes, ..., AccessWidth = 33554436) -- CPU is running -- CPU_ReadMem(4 bytes @ 0x4001002C) -- Data:  10 27 00 00  returns 0x04 (0000ms, 43610ms total)
T4124 3876:596 JLINK_ReadMemEx(0x40010030, 0x0004 Bytes, ..., AccessWidth = 33554436) -- CPU is running -- CPU_ReadMem(4 bytes @ 0x40010030) -- Data:  00 00 00 00  returns 0x04 (0002ms, 43612ms total)
T4124 3876:598 JLINK_ReadMemEx(0x40010034, 0x000C Bytes, ..., AccessWidth = 33554436) -- CPU is running -- CPU_ReadMem(12 bytes @ 0x40010034) -- Data:  A0 0F 00 00 A0 0F 00 00 A0 0F 00 00  returns 0x0C (0000ms, 43612ms total)
T4124 3876:598 JLINK_ReadMemEx(0x40010040, 0x0004 Bytes, ..., AccessWidth = 33554436) -- CPU is running -- CPU_ReadMem(4 bytes @ 0x40010040) -- Data:  A0 0F 00 00  returns 0x04 (0000ms, 43612ms total)
T4124 3876:598 JLINK_ReadMemEx(0x40010044, 0x0004 Bytes, ..., AccessWidth = 33554436) -- CPU is running -- CPU_ReadMem(4 bytes @ 0x40010044) -- Data:  00 80 00 00  returns 0x04 (0000ms, 43612ms total)
T4124 3876:598 JLINK_ReadMemEx(0x40010048, 0x0004 Bytes, ..., AccessWidth = 33554436) -- CPU is running -- CPU_ReadMem(4 bytes @ 0x40010048) -- Data:  00 00 00 00  returns 0x04 (0002ms, 43614ms total)
T4124 3876:600 JLINK_ReadMemEx(0x4001004C, 0x0004 Bytes, ..., AccessWidth = 33554436) -- CPU is running -- CPU_ReadMem(4 bytes @ 0x4001004C) -- Data:  81 00 00 00  returns 0x04 (0000ms, 43614ms total)
T3614 3876:605 JLINK_IsHalted()  returns FALSE (0001ms, 43615ms total)
T3614 3876:707 JLINK_IsHalted()  returns FALSE (0000ms, 43614ms total)
T3614 3876:808 JLINK_IsHalted()  returns FALSE (0000ms, 43614ms total)
T3614 3876:909 JLINK_IsHalted()  returns FALSE (0000ms, 43614ms total)
T3614 3877:009 JLINK_IsHalted()  returns FALSE (0000ms, 43614ms total)
T3614 3877:110 JLINK_ReadMemU32(0xE0001004, 0x0001 Items, ...) -- CPU is running -- CPU_ReadMem(4 bytes @ 0xE0001004) -- Data:  27 08 48 20  returns 0x01 (0000ms, 43614ms total)
T4124 3877:115 JLINK_ReadMemEx(0x200009A8, 0x0001 Bytes, ..., AccessWidth = 33554432)Mis-aligned memory read: Address: 0x200009A8, NumBytes: 1, Alignment: 2 (Halfword-aligned)
  ***** Mis-aligned memory read: Address: 0x200009A8, NumBytes: 1, Alignment: 2 (Halfword-aligned) -- CPU is running -- CPU_ReadMem(1 bytes @ 0x200009A8) -- Data:  00  returns 0x01 (0000ms, 43614ms total)
T4124 3877:115 JLINK_ReadMemEx(0x200009A9, 0x0001 Bytes, ..., AccessWidth = 33554432)Mis-aligned memory read: Address: 0x200009A9, NumBytes: 1, Alignment: 2 (Halfword-aligned)
  ***** Mis-aligned memory read: Address: 0x200009A9, NumBytes: 1, Alignment: 2 (Halfword-aligned) -- CPU is running -- CPU_ReadMem(1 bytes @ 0x200009A9) -- Data:  00  returns 0x01 (0001ms, 43615ms total)
T4124 3877:116 JLINK_ReadMemEx(0x200009AA, 0x0001 Bytes, ..., AccessWidth = 33554432)Mis-aligned memory read: Address: 0x200009AA, NumBytes: 1, Alignment: 2 (Halfword-aligned)
  ***** Mis-aligned memory read: Address: 0x200009AA, NumBytes: 1, Alignment: 2 (Halfword-aligned) -- CPU is running -- CPU_ReadMem(1 bytes @ 0x200009AA) -- Data:  01  returns 0x01 (0001ms, 43616ms total)
T4124 3877:118 JLINK_ReadMemEx(0x40010000, 0x0010 Bytes, ..., AccessWidth = 33554436) -- CPU is running -- CPU_ReadMem(16 bytes @ 0x40010000) -- Data:  81 00 00 00 00 55 00 00 00 00 00 00 00 00 00 00  returns 0x10 (0001ms, 43617ms total)
T4124 3877:119 JLINK_ReadMemEx(0x40010010, 0x0004 Bytes, ..., AccessWidth = 33554436) -- CPU is running -- CPU_ReadMem(4 bytes @ 0x40010010) -- Data:  1F 00 00 00  returns 0x04 (0000ms, 43617ms total)
T4124 3877:120 JLINK_ReadMemEx(0x40010018, 0x0014 Bytes, ..., AccessWidth = 33554436) -- CPU is running -- CPU_ReadMem(20 bytes @ 0x40010018) -- Data:  68 68 00 00 68 68 00 00 99 19 00 00 9A 03 00 00 ...  returns 0x14 (0000ms, 43617ms total)
T4124 3877:120 JLINK_ReadMemEx(0x4001002C, 0x0004 Bytes, ..., AccessWidth = 33554436) -- CPU is running -- CPU_ReadMem(4 bytes @ 0x4001002C) -- Data:  10 27 00 00  returns 0x04 (0000ms, 43617ms total)
T4124 3877:120 JLINK_ReadMemEx(0x40010030, 0x0004 Bytes, ..., AccessWidth = 33554436) -- CPU is running -- CPU_ReadMem(4 bytes @ 0x40010030) -- Data:  00 00 00 00  returns 0x04 (0001ms, 43618ms total)
T4124 3877:121 JLINK_ReadMemEx(0x40010034, 0x000C Bytes, ..., AccessWidth = 33554436) -- CPU is running -- CPU_ReadMem(12 bytes @ 0x40010034) -- Data:  A0 0F 00 00 A0 0F 00 00 A0 0F 00 00  returns 0x0C (0000ms, 43618ms total)
T4124 3877:121 JLINK_ReadMemEx(0x40010040, 0x0004 Bytes, ..., AccessWidth = 33554436) -- CPU is running -- CPU_ReadMem(4 bytes @ 0x40010040) -- Data:  A0 0F 00 00  returns 0x04 (0000ms, 43618ms total)
T4124 3877:121 JLINK_ReadMemEx(0x40010044, 0x0004 Bytes, ..., AccessWidth = 33554436) -- CPU is running -- CPU_ReadMem(4 bytes @ 0x40010044) -- Data:  00 80 00 00  returns 0x04 (0001ms, 43619ms total)
T4124 3877:122 JLINK_ReadMemEx(0x40010048, 0x0004 Bytes, ..., AccessWidth = 33554436) -- CPU is running -- CPU_ReadMem(4 bytes @ 0x40010048) -- Data:  00 00 00 00  returns 0x04 (0001ms, 43620ms total)
T4124 3877:123 JLINK_ReadMemEx(0x4001004C, 0x0004 Bytes, ..., AccessWidth = 33554436) -- CPU is running -- CPU_ReadMem(4 bytes @ 0x4001004C) -- Data:  81 00 00 00  returns 0x04 (0000ms, 43620ms total)
T3614 3877:128 JLINK_IsHalted()  returns FALSE (0000ms, 43620ms total)
T3614 3877:230 JLINK_IsHalted()  returns FALSE (0000ms, 43620ms total)
T3614 3877:331 JLINK_IsHalted()  returns FALSE (0000ms, 43620ms total)
T3614 3877:432 JLINK_IsHalted()  returns FALSE (0000ms, 43620ms total)
T3614 3877:533 JLINK_IsHalted()  returns FALSE (0000ms, 43620ms total)
T3614 3877:634 JLINK_ReadMemU32(0xE0001004, 0x0001 Items, ...) -- CPU is running -- CPU_ReadMem(4 bytes @ 0xE0001004) -- Data:  58 F3 88 25  returns 0x01 (0001ms, 43621ms total)
T4124 3877:639 JLINK_ReadMemEx(0x200009A8, 0x0001 Bytes, ..., AccessWidth = 33554432)Mis-aligned memory read: Address: 0x200009A8, NumBytes: 1, Alignment: 2 (Halfword-aligned)
  ***** Mis-aligned memory read: Address: 0x200009A8, NumBytes: 1, Alignment: 2 (Halfword-aligned) -- CPU is running -- CPU_ReadMem(1 bytes @ 0x200009A8) -- Data:  00  returns 0x01 (0000ms, 43621ms total)
T4124 3877:639 JLINK_ReadMemEx(0x200009A9, 0x0001 Bytes, ..., AccessWidth = 33554432)Mis-aligned memory read: Address: 0x200009A9, NumBytes: 1, Alignment: 2 (Halfword-aligned)
  ***** Mis-aligned memory read: Address: 0x200009A9, NumBytes: 1, Alignment: 2 (Halfword-aligned) -- CPU is running -- CPU_ReadMem(1 bytes @ 0x200009A9) -- Data:  00  returns 0x01 (0001ms, 43622ms total)
T4124 3877:640 JLINK_ReadMemEx(0x200009AA, 0x0001 Bytes, ..., AccessWidth = 33554432)Mis-aligned memory read: Address: 0x200009AA, NumBytes: 1, Alignment: 2 (Halfword-aligned)
  ***** Mis-aligned memory read: Address: 0x200009AA, NumBytes: 1, Alignment: 2 (Halfword-aligned) -- CPU is running -- CPU_ReadMem(1 bytes @ 0x200009AA) -- Data:  01  returns 0x01 (0000ms, 43622ms total)
T4124 3877:641 JLINK_ReadMemEx(0x40010000, 0x0010 Bytes, ..., AccessWidth = 33554436) -- CPU is running -- CPU_ReadMem(16 bytes @ 0x40010000) -- Data:  81 00 00 00 00 55 00 00 00 00 00 00 00 00 00 00  returns 0x10 (0001ms, 43623ms total)
T4124 3877:642 JLINK_ReadMemEx(0x40010010, 0x0004 Bytes, ..., AccessWidth = 33554436) -- CPU is running -- CPU_ReadMem(4 bytes @ 0x40010010) -- Data:  1F 00 00 00  returns 0x04 (0000ms, 43623ms total)
T4124 3877:642 JLINK_ReadMemEx(0x40010018, 0x0014 Bytes, ..., AccessWidth = 33554436) -- CPU is running -- CPU_ReadMem(20 bytes @ 0x40010018) -- Data:  68 68 00 00 68 68 00 00 99 19 00 00 AE 1B 00 00 ...  returns 0x14 (0001ms, 43624ms total)
T4124 3877:643 JLINK_ReadMemEx(0x4001002C, 0x0004 Bytes, ..., AccessWidth = 33554436) -- CPU is running -- CPU_ReadMem(4 bytes @ 0x4001002C) -- Data:  10 27 00 00  returns 0x04 (0001ms, 43625ms total)
T4124 3877:644 JLINK_ReadMemEx(0x40010030, 0x0004 Bytes, ..., AccessWidth = 33554436) -- CPU is running -- CPU_ReadMem(4 bytes @ 0x40010030) -- Data:  00 00 00 00  returns 0x04 (0000ms, 43625ms total)
T4124 3877:644 JLINK_ReadMemEx(0x40010034, 0x000C Bytes, ..., AccessWidth = 33554436) -- CPU is running -- CPU_ReadMem(12 bytes @ 0x40010034) -- Data:  A0 0F 00 00 A0 0F 00 00 A0 0F 00 00  returns 0x0C (0001ms, 43626ms total)
T4124 3877:645 JLINK_ReadMemEx(0x40010040, 0x0004 Bytes, ..., AccessWidth = 33554436) -- CPU is running -- CPU_ReadMem(4 bytes @ 0x40010040) -- Data:  A0 0F 00 00  returns 0x04 (0000ms, 43626ms total)
T4124 3877:645 JLINK_ReadMemEx(0x40010044, 0x0004 Bytes, ..., AccessWidth = 33554436) -- CPU is running -- CPU_ReadMem(4 bytes @ 0x40010044) -- Data:  00 80 00 00  returns 0x04 (0001ms, 43627ms total)
T4124 3877:646 JLINK_ReadMemEx(0x40010048, 0x0004 Bytes, ..., AccessWidth = 33554436) -- CPU is running -- CPU_ReadMem(4 bytes @ 0x40010048) -- Data:  00 00 00 00  returns 0x04 (0000ms, 43627ms total)
T4124 3877:646 JLINK_ReadMemEx(0x4001004C, 0x0004 Bytes, ..., AccessWidth = 33554436) -- CPU is running -- CPU_ReadMem(4 bytes @ 0x4001004C) -- Data:  81 00 00 00  returns 0x04 (0001ms, 43628ms total)
T3614 3877:653 JLINK_IsHalted()  returns FALSE (0000ms, 43628ms total)
T4124 3877:659 JLINK_ReadMemEx(0x200009AC, 0x0001 Bytes, ..., AccessWidth = 33554432)Mis-aligned memory read: Address: 0x200009AC, NumBytes: 1, Alignment: 2 (Halfword-aligned)
  ***** Mis-aligned memory read: Address: 0x200009AC, NumBytes: 1, Alignment: 2 (Halfword-aligned) -- CPU is running -- CPU_ReadMem(1 bytes @ 0x200009AC) -- Data:  00  returns 0x01 (0001ms, 43629ms total)
